
T0FDC 000:311 SEGGER J-Link V4.94j Log File (0000ms, 0284ms total)
T0FDC 000:311 DLL Compiled: Dec 10 2014 13:52:41 (0000ms, 0284ms total)
T0FDC 000:311 Logging started @ 2015-05-25 23:31 (0000ms, 0284ms total)
T0FDC 000:311 JLINK_SetWarnOutHandler(...) (0000ms, 0284ms total)
T0FDC 000:311 JLINK_OpenEx(...)
Firmware: J-Link V9 compiled Feb 13 2015 20:37:28
Hardware: V9.30
S/N: 269303451
OEM: SEGGER-EDU
Feature(s): FlashBP, GDB  returns O.K. (0268ms, 0552ms total)
T0FDC 000:579 JLINK_SetErrorOutHandler(...) (0000ms, 0552ms total)
T0FDC 000:579 JLINK_ExecCommand("ProjectFile = "C:\Users\Gorka\Documents\GitHub\CowTek-POPBL4\Microcontroladores\APIs\UART\JLinkSettings.ini"", ...)Device "UNSPECIFIED" selected.  returns 0x00 (0001ms, 0553ms total)
T0FDC 000:580 JLINK_ExecCommand("Device = STM32F407ZGTx", ...)Device "UNSPECIFIED" selected.  returns 0x00 (0003ms, 0556ms total)
T0FDC 000:583 JLINK_ExecCommand("DisableConnectionTimeout", ...)  returns 0x01 (0000ms, 0556ms total)
T0FDC 000:583 JLINK_GetHardwareVersion()  returns 0x16B48 (0000ms, 0556ms total)
T0FDC 000:583 JLINK_GetDLLVersion()  returns 49410 (0000ms, 0556ms total)
T0FDC 000:586 JLINK_GetDLLVersion()  returns 49410 (0000ms, 0556ms total)
T0FDC 000:586 JLINK_GetCompileDateTime() (0000ms, 0556ms total)
T0FDC 000:586 JLINK_GetFirmwareString(...) (0000ms, 0556ms total)
T0FDC 000:586 JLINK_GetHardwareVersion()  returns 0x16B48 (0000ms, 0556ms total)
T0FDC 000:586 JLINK_TIF_Select(JLINKARM_TIF_JTAG)  returns 0x00 (0002ms, 0558ms total)
T0FDC 000:588 JLINK_SetMaxSpeed() >0x2F8 JTAG>TotalIRLen = 9, IRPrint = 0x0011 >0x30 JTAG> >0x210 JTAG> >0x70 JTAG> >0x40 JTAG> >0x40 JTAG> >0x40 JTAG> >0x50 JTAG> >0x80 JTAG> >0x40 JTAG> >0x30 JTAG> >0x40 JTAG> >0x40 JTAG> >0x30 JTAG> >0x40 JTAG> >0x50 JTAG>Found Cortex-M4 r0p1, Little endian. -- CPU_WriteMem(4 bytes @ 0xE0002000) -- CPU_ReadMem(4 bytes @ 0xE000EDF0) -- CPU_ReadMem(4 bytes @ 0xE0002000)FPUnit: 6 code (BP) slots and 2 literal slots -- CPU_ReadMem(4 bytes @ 0xE000EDFC)
 -- CPU_ReadMem(4 bytes @ 0xE0001000) -- CPU_WriteMem(4 bytes @ 0xE0001000) -- CPU_ReadMem(4 bytes @ 0xE000ED88) -- CPU_WriteMem(4 bytes @ 0xE000ED88) -- CPU_ReadMem(4 bytes @ 0xE000ED88) -- CPU_WriteMem(4 bytes @ 0xE000ED88) -- CPU_ReadMem(4 bytes @ 0xE00FF010)TPIU fitted. -- CPU_ReadMem(4 bytes @ 0xE00FF014)ETM fitted. -- CPU_ReadMem(4 bytes @ 0xE00FF018) >0x38 JTAG> (0025ms, 0583ms total)
T0FDC 000:613 JLINK_GetSpeed()  returns 0xFA0 (0000ms, 0583ms total)
T0FDC 000:613 JLINK_GetIdData(...) ScanLen=9 NumDevices=2 aId[0]=0x4BA00477 aIrRead[0]=0 aScanLen[0]=0 aScanRead[0]=0 (0000ms, 0583ms total)
T0FDC 000:613 JLINK_JTAG_GetDeviceID(DeviceIndex = 0)  returns 0x4BA00477 (0000ms, 0583ms total)
T0FDC 000:613 JLINK_JTAG_GetDeviceInfo(DeviceIndex = 0)  returns 0x00 (0000ms, 0583ms total)
T0FDC 000:613 JLINK_JTAG_GetDeviceID(DeviceIndex = 1)  returns 0x6413041 (0000ms, 0583ms total)
T0FDC 000:613 JLINK_JTAG_GetDeviceInfo(DeviceIndex = 1)  returns 0x00 (0000ms, 0583ms total)
T0FDC 000:613 JLINK_CORE_GetFound()  returns 0xE0000FF (0000ms, 0583ms total)
T0FDC 000:613 JLINK_ReadMem (0xE00FFFF0, 0x0010 Bytes, ...) -- CPU is running -- CPU_ReadMem(16 bytes @ 0xE00FFFF0) - Data: 0D 00 00 00 10 00 00 00 05 00 00 00 B1 00 00 00  returns 0x00 (0000ms, 0583ms total)
T0FDC 000:613 JLINK_ReadMem (0xE00FFFD0, 0x0020 Bytes, ...) -- CPU is running -- CPU_ReadMem(32 bytes @ 0xE00FFFD0) - Data: 00 00 00 00 00 00 00 00 00 00 00 00 00 00 00 00 ...  returns 0x00 (0001ms, 0584ms total)
T0FDC 000:614 JLINK_ReadMem (0xE00FF000, 0x0018 Bytes, ...) -- CPU is running -- CPU_ReadMem(24 bytes @ 0xE00FF000) - Data: 03 F0 F0 FF 03 20 F0 FF 03 30 F0 FF 03 10 F0 FF ...  returns 0x00 (0002ms, 0586ms total)
T0FDC 000:616 JLINK_CORE_GetFound()  returns 0xE0000FF (0000ms, 0586ms total)
T0FDC 000:616 JLINK_ReadMemU32(0xE000EF40, 0x0001 Items, ...) -- CPU is running -- CPU_ReadMem(4 bytes @ 0xE000EF40) - Data: 21 00 11 10  returns 0x01 (0000ms, 0586ms total)
T0FDC 000:616 JLINK_ReadMemU32(0xE000EF44, 0x0001 Items, ...) -- CPU is running -- CPU_ReadMem(4 bytes @ 0xE000EF44) - Data: 11 00 00 11  returns 0x01 (0000ms, 0586ms total)
T0FDC 000:616 JLINK_ReadMemU32(0xE000ED00, 0x0001 Items, ...) -- CPU is running -- CPU_ReadMem(4 bytes @ 0xE000ED00) - Data: 41 C2 0F 41  returns 0x01 (0000ms, 0586ms total)
T0FDC 000:616 JLINK_SetResetType(JLINKARM_RESET_TYPE_NORMAL)  returns JLINKARM_RESET_TYPE_NORMAL (0000ms, 0586ms total)
T0FDC 000:616 JLINK_Reset() -- CPU is running -- CPU_WriteMem(4 bytes @ 0xE000EDF0) -- CPU is running -- CPU_WriteMem(4 bytes @ 0xE000EDFC) -- CPU is running -- CPU_WriteMem(4 bytes @ 0xE000ED0C) -- CPU is running -- CPU_ReadMem(4 bytes @ 0xE000EDF0) -- CPU is running -- CPU_ReadMem(4 bytes @ 0xE000EDF0) -- CPU is running -- CPU_WriteMem(4 bytes @ 0xE000EDF0) -- CPU is running -- CPU_WriteMem(4 bytes @ 0xE000EDFC) -- CPU is running -- CPU_ReadMem(4 bytes @ 0xE000EDF0) >0x80 JTAG> >0x40 JTAG> >0x30 JTAG>
 >0x40 JTAG> >0x50 JTAG> >0x40 JTAG> -- CPU_WriteMem(4 bytes @ 0xE000EDFC) -- CPU_WriteMem(4 bytes @ 0xE0001028) -- CPU_WriteMem(4 bytes @ 0xE0001038) -- CPU_WriteMem(4 bytes @ 0xE0001048) -- CPU_WriteMem(4 bytes @ 0xE0001058) -- CPU_WriteMem(4 bytes @ 0xE0002000) -- CPU_ReadMem(4 bytes @ 0xE000EDFC) -- CPU_ReadMem(4 bytes @ 0xE0001000) (0028ms, 0614ms total)
T0FDC 000:644 JLINK_ReadReg(R15 (PC))  returns 0x08000228 (0000ms, 0614ms total)
T0FDC 000:644 JLINK_ReadReg(XPSR)  returns 0x01000000 (0000ms, 0614ms total)
T0FDC 000:644 JLINK_Halt()  returns 0x00 (0000ms, 0614ms total)
T0FDC 000:644 JLINK_IsHalted()  returns TRUE (0000ms, 0614ms total)
T0FDC 000:644 JLINK_ReadMemU32(0xE000EDF0, 0x0001 Items, ...) -- CPU_ReadMem(4 bytes @ 0xE000EDF0) - Data: 03 00 03 00  returns 0x01 (0001ms, 0615ms total)
T0FDC 000:645 JLINK_WriteU32(0xE000EDF0, 0xA05F0003) -- CPU_WriteMem(4 bytes @ 0xE000EDF0)  returns 0x00 (0000ms, 0615ms total)
T0FDC 000:645 JLINK_WriteU32(0xE000EDFC, 0x01000000) -- CPU_WriteMem(4 bytes @ 0xE000EDFC)  returns 0x00 (0001ms, 0616ms total)
T0FDC 000:646 JLINK_GetHWStatus(...)  returns 0x00 (0000ms, 0616ms total)
T0FDC 000:647 JLINK_GetNumBPUnits(Type = 0xFFFFFF00)  returns 0x06 (0000ms, 0616ms total)
T0FDC 000:647 JLINK_GetNumBPUnits(Type = 0xF0)  returns 0x2000 (0000ms, 0616ms total)
T0FDC 000:647 JLINK_GetNumWPUnits()  returns 0x04 (0000ms, 0616ms total)
T0FDC 000:647 JLINK_GetSpeed()  returns 0xFA0 (0000ms, 0616ms total)
T0FDC 000:647 JLINK_ReadMemU32(0xE000E004, 0x0001 Items, ...) -- CPU_ReadMem(4 bytes @ 0xE000E004) - Data: 02 00 00 00  returns 0x01 (0001ms, 0617ms total)
T0FDC 000:648 JLINK_ReadMemU32(0xE000E004, 0x0001 Items, ...) -- CPU_ReadMem(4 bytes @ 0xE000E004) - Data: 02 00 00 00  returns 0x01 (0000ms, 0617ms total)
T0FDC 000:648 JLINK_WriteMem(0xE0001000, 0x001C Bytes, ...) - Data: 01 00 00 00 00 00 00 00 00 00 00 00 00 00 00 00 ... -- CPU_WriteMem(28 bytes @ 0xE0001000)  returns 0x1C (0002ms, 0619ms total)
T0FDC 000:650 JLINK_ReadMem (0xE0001000, 0x001C Bytes, ...) -- CPU_ReadMem(28 bytes @ 0xE0001000) - Data: 01 00 00 40 00 00 00 00 00 00 00 00 00 00 00 00 ...  returns 0x00 (0000ms, 0619ms total)
T0FDC 000:650 JLINK_ReadReg(R15 (PC))  returns 0x08000228 (0000ms, 0619ms total)
T0FDC 000:650 JLINK_ReadReg(XPSR)  returns 0x01000000 (0000ms, 0619ms total)
T0FDC 000:672 JLINK_WriteMem(0x08000000, 0x0400 Bytes, ...) - Data: 08 07 00 20 29 02 00 08 31 02 00 08 33 02 00 08 ... -- CPU_WriteMem(1024 bytes @ 0x08000000)  returns 0x400 (0006ms, 0625ms total)
T0FDC 000:678 JLINK_WriteMem(0x08000400, 0x024C Bytes, ...) - Data: 02 49 09 1F 08 60 10 BD 00 00 00 20 04 48 00 40 ... -- CPU_WriteMem(588 bytes @ 0x08000400)  returns 0x24C (0003ms, 0628ms total)
T0FDC 000:733 JLINK_SetResetType(JLINKARM_RESET_TYPE_NORMAL)  returns JLINKARM_RESET_TYPE_NORMAL (0000ms, 0628ms total)
T0FDC 000:733 JLINK_Reset() -- CPU_WriteMem(4 bytes @ 0xE000EDF0) -- CPU_WriteMem(4 bytes @ 0xE000EDFC) -- CPU_WriteMem(4 bytes @ 0xE000ED0C) -- CPU_ReadMem(4 bytes @ 0xE000EDF0) -- CPU_ReadMem(4 bytes @ 0xE000EDF0) -- CPU_WriteMem(4 bytes @ 0xE000EDF0) -- CPU_WriteMem(4 bytes @ 0xE000EDFC) -- CPU is running -- CPU_ReadMem(4 bytes @ 0xE000EDF0) >0x80 JTAG> >0x40 JTAG> >0x30 JTAG> >0x40 JTAG> >0x50 JTAG> >0x40 JTAG> -- CPU_WriteMem(4 bytes @ 0xE000EDFC) -- CPU_WriteMem(4 bytes @ 0xE0001028)
 -- CPU_WriteMem(4 bytes @ 0xE0001038) -- CPU_WriteMem(4 bytes @ 0xE0001048) -- CPU_WriteMem(4 bytes @ 0xE0001058) -- CPU_WriteMem(4 bytes @ 0xE0002000) -- CPU_ReadMem(4 bytes @ 0xE000EDFC) -- CPU_ReadMem(4 bytes @ 0xE0001000) (0029ms, 0657ms total)
T0FDC 000:762 JLINK_ReadReg(R15 (PC))  returns 0x08000228 (0000ms, 0657ms total)
T0FDC 000:762 JLINK_ReadReg(XPSR)  returns 0x01000000 (0000ms, 0657ms total)
T0FDC 000:762 JLINK_ReadMem (0x08000228, 0x003C Bytes, ...) -- CPU_ReadMem(60 bytes @ 0x08000228) - Data: 09 48 80 47 09 48 00 47 FE E7 FE E7 FE E7 FE E7 ...  returns 0x00 (0000ms, 0657ms total)
T0FDC 000:860 JLINK_ReadMem (0x40020800, 0x0014 Bytes, ...) -- CPU_ReadMem(20 bytes @ 0x40020800) - Data: 00 00 00 00 00 00 00 00 00 00 00 00 00 00 00 00 ...  returns 0x00 (0002ms, 0659ms total)
T0FDC 000:862 JLINK_ReadMem (0x40020814, 0x0004 Bytes, ...) -- CPU_ReadMem(4 bytes @ 0x40020814) - Data: 00 00 00 00  returns 0x00 (0000ms, 0659ms total)
T0FDC 000:862 JLINK_ReadMem (0x4002081C, 0x0008 Bytes, ...) -- CPU_ReadMem(8 bytes @ 0x4002081C) - Data: 00 00 00 00 00 00 00 00  returns 0x00 (0000ms, 0659ms total)
T0FDC 000:862 JLINK_ReadMem (0x40020824, 0x0004 Bytes, ...) -- CPU_ReadMem(4 bytes @ 0x40020824) - Data: 00 00 00 00  returns 0x00 (0001ms, 0660ms total)
T0FDC 000:889 JLINK_ReadMem (0x40021800, 0x0014 Bytes, ...) -- CPU_ReadMem(20 bytes @ 0x40021800) - Data: 00 00 00 00 00 00 00 00 00 00 00 00 00 00 00 00 ...  returns 0x00 (0002ms, 0662ms total)
T0FDC 000:891 JLINK_ReadMem (0x40021814, 0x0004 Bytes, ...) -- CPU_ReadMem(4 bytes @ 0x40021814) - Data: 00 00 00 00  returns 0x00 (0000ms, 0662ms total)
T0FDC 000:891 JLINK_ReadMem (0x4002181C, 0x0008 Bytes, ...) -- CPU_ReadMem(8 bytes @ 0x4002181C) - Data: 00 00 00 00 00 00 00 00  returns 0x00 (0000ms, 0662ms total)
T0FDC 000:891 JLINK_ReadMem (0x40021824, 0x0004 Bytes, ...) -- CPU_ReadMem(4 bytes @ 0x40021824) - Data: 00 00 00 00  returns 0x00 (0001ms, 0663ms total)
T0FDC 000:924 JLINK_ReadMem (0x40007000, 0x0004 Bytes, ...) -- CPU_ReadMem(4 bytes @ 0x40007000) - Data: 00 C0 00 00  returns 0x00 (0002ms, 0665ms total)
T0FDC 000:926 JLINK_ReadMem (0x40007004, 0x0004 Bytes, ...) -- CPU_ReadMem(4 bytes @ 0x40007004) - Data: 00 00 00 00  returns 0x00 (0001ms, 0666ms total)
T0FDC 000:952 JLINK_ReadMem (0x40023800, 0x0008 Bytes, ...) -- CPU_ReadMem(8 bytes @ 0x40023800) - Data: 83 7D 00 00 10 30 00 24  returns 0x00 (0001ms, 0667ms total)
T0FDC 000:953 JLINK_ReadMem (0x40023808, 0x0004 Bytes, ...) -- CPU_ReadMem(4 bytes @ 0x40023808) - Data: 00 00 00 00  returns 0x00 (0000ms, 0667ms total)
T0FDC 000:953 JLINK_ReadMem (0x40023810, 0x0008 Bytes, ...) -- CPU_ReadMem(8 bytes @ 0x40023810) - Data: 00 00 00 00 00 00 00 00  returns 0x00 (0000ms, 0667ms total)
T0FDC 000:953 JLINK_ReadMem (0x40023818, 0x0004 Bytes, ...) -- CPU_ReadMem(4 bytes @ 0x40023818) - Data: 00 00 00 00  returns 0x00 (0001ms, 0668ms total)
T0FDC 000:954 JLINK_ReadMem (0x40023820, 0x0004 Bytes, ...) -- CPU_ReadMem(4 bytes @ 0x40023820) - Data: 00 00 00 00  returns 0x00 (0000ms, 0668ms total)
T0FDC 000:954 JLINK_ReadMem (0x40023824, 0x0004 Bytes, ...) -- CPU_ReadMem(4 bytes @ 0x40023824) - Data: 00 00 00 00  returns 0x00 (0002ms, 0670ms total)
T0FDC 000:956 JLINK_ReadMem (0x40023830, 0x0008 Bytes, ...) -- CPU_ReadMem(8 bytes @ 0x40023830) - Data: 00 00 10 00 00 00 00 00  returns 0x00 (0000ms, 0670ms total)
T0FDC 000:956 JLINK_ReadMem (0x40023838, 0x0004 Bytes, ...) -- CPU_ReadMem(4 bytes @ 0x40023838) - Data: 00 00 00 00  returns 0x00 (0000ms, 0670ms total)
T0FDC 000:956 JLINK_ReadMem (0x40023840, 0x0004 Bytes, ...) -- CPU_ReadMem(4 bytes @ 0x40023840) - Data: 00 00 00 00  returns 0x00 (0001ms, 0671ms total)
T0FDC 000:957 JLINK_ReadMem (0x40023844, 0x0004 Bytes, ...) -- CPU_ReadMem(4 bytes @ 0x40023844) - Data: 00 00 00 00  returns 0x00 (0000ms, 0671ms total)
T0FDC 000:957 JLINK_ReadMem (0x40023850, 0x0008 Bytes, ...) -- CPU_ReadMem(8 bytes @ 0x40023850) - Data: FF 91 67 7E F1 00 00 00  returns 0x00 (0001ms, 0672ms total)
T0FDC 000:958 JLINK_ReadMem (0x40023858, 0x0004 Bytes, ...) -- CPU_ReadMem(4 bytes @ 0x40023858) - Data: 01 00 00 00  returns 0x00 (0002ms, 0674ms total)
T0FDC 000:960 JLINK_ReadMem (0x40023860, 0x0004 Bytes, ...) -- CPU_ReadMem(4 bytes @ 0x40023860) - Data: FF C9 FE 36  returns 0x00 (0000ms, 0674ms total)
T0FDC 000:960 JLINK_ReadMem (0x40023864, 0x0004 Bytes, ...) -- CPU_ReadMem(4 bytes @ 0x40023864) - Data: 33 5F 07 00  returns 0x00 (0001ms, 0675ms total)
T0FDC 000:961 JLINK_ReadMem (0x40023870, 0x0004 Bytes, ...) -- CPU_ReadMem(4 bytes @ 0x40023870) - Data: 00 00 00 00  returns 0x00 (0000ms, 0675ms total)
T0FDC 000:961 JLINK_ReadMem (0x40023874, 0x0004 Bytes, ...) -- CPU_ReadMem(4 bytes @ 0x40023874) - Data: 00 00 00 1E  returns 0x00 (0000ms, 0675ms total)
T0FDC 000:961 JLINK_ReadMem (0x40023880, 0x0004 Bytes, ...) -- CPU_ReadMem(4 bytes @ 0x40023880) - Data: 00 00 00 00  returns 0x00 (0000ms, 0675ms total)
T0FDC 000:961 JLINK_ReadMem (0x40023884, 0x0004 Bytes, ...) -- CPU_ReadMem(4 bytes @ 0x40023884) - Data: 00 30 00 20  returns 0x00 (0001ms, 0676ms total)
T0FDC 000:988 JLINK_ReadMem (0x40004800, 0x0018 Bytes, ...) -- CPU_ReadMem(24 bytes @ 0x40004800) - Data: 00 00 00 00 00 00 00 00 00 00 00 00 00 00 00 00 ...  returns 0x00 (0003ms, 0679ms total)
T0FDC 000:991 JLINK_ReadMem (0x40004818, 0x0004 Bytes, ...) -- CPU_ReadMem(4 bytes @ 0x40004818) - Data: 00 00 00 00  returns 0x00 (0002ms, 0681ms total)
T0FDC 001:022 JLINK_ReadMem (0x40011400, 0x0018 Bytes, ...) -- CPU_ReadMem(24 bytes @ 0x40011400) - Data: 00 00 00 00 00 00 00 00 00 00 00 00 00 00 00 00 ...  returns 0x00 (0002ms, 0683ms total)
T0FDC 001:024 JLINK_ReadMem (0x40011418, 0x0004 Bytes, ...) -- CPU_ReadMem(4 bytes @ 0x40011418) - Data: 00 00 00 00  returns 0x00 (0001ms, 0684ms total)
T0FDC 002:114 JLINK_ReadMem (0x20000004, 0x0001 Bytes, ...) -- CPU_ReadMem(1 bytes @ 0x20000004) - Data: 00  returns 0x00 (0001ms, 0685ms total)
T0FDC 002:115 JLINK_ReadMem (0x00000000, 0x00BD Bytes, ...) -- CPU_ReadMem(189 bytes @ 0x00000000) - Data: 08 07 00 20 29 02 00 08 31 02 00 08 33 02 00 08 ...  returns 0x00 (0001ms, 0686ms total)
T0AC4 002:121 JLINK_SetBPEx(Addr = 0x080005C0, Type = 0xFFFFFFF2)  returns 0x00000001 (0000ms, 0686ms total)
T0AC4 002:121 JLINK_SetBPEx(Addr = 0x08000436, Type = 0xFFFFFFF2)  returns 0x00000002 (0000ms, 0686ms total)
T0AC4 002:121 JLINK_SetBPEx(Addr = 0x08000420, Type = 0xFFFFFFF2)  returns 0x00000003 (0000ms, 0686ms total)
T0AC4 002:121 JLINK_SetBPEx(Addr = 0x08000418, Type = 0xFFFFFFF2)  returns 0x00000004 (0000ms, 0686ms total)
T0AC4 002:121 JLINK_SetBPEx(Addr = 0x08000416, Type = 0xFFFFFFF2)  returns 0x00000005 (0000ms, 0686ms total)
T0AC4 002:121 JLINK_Go() -- CPU_WriteMem(4 bytes @ 0xE0002008) -- CPU_WriteMem(4 bytes @ 0xE000200C) -- CPU_WriteMem(4 bytes @ 0xE0002010) -- CPU_WriteMem(4 bytes @ 0xE0002014) -- CPU_WriteMem(4 bytes @ 0xE0002018) -- CPU_WriteMem(4 bytes @ 0xE000201C) -- CPU_WriteMem(4 bytes @ 0xE0001004) (0004ms, 0690ms total)
T0AC4 002:226 JLINK_IsHalted()  returns TRUE (0003ms, 0693ms total)
T0AC4 002:229 JLINK_Halt()  returns 0x00 (0000ms, 0690ms total)
T0AC4 002:229 JLINK_IsHalted()  returns TRUE (0000ms, 0690ms total)
T0AC4 002:229 JLINK_IsHalted()  returns TRUE (0000ms, 0690ms total)
T0AC4 002:229 JLINK_IsHalted()  returns TRUE (0000ms, 0690ms total)
T0AC4 002:229 JLINK_ReadReg(R15 (PC))  returns 0x080005C0 (0000ms, 0690ms total)
T0AC4 002:229 JLINK_ReadReg(XPSR)  returns 0x21000000 (0000ms, 0690ms total)
T0AC4 002:229 JLINK_ClrBPEx(BPHandle = 0x00000001)  returns 0x00 (0000ms, 0690ms total)
T0AC4 002:229 JLINK_ClrBPEx(BPHandle = 0x00000002)  returns 0x00 (0000ms, 0690ms total)
T0AC4 002:229 JLINK_ClrBPEx(BPHandle = 0x00000003)  returns 0x00 (0000ms, 0690ms total)
T0AC4 002:229 JLINK_ClrBPEx(BPHandle = 0x00000004)  returns 0x00 (0000ms, 0690ms total)
T0AC4 002:229 JLINK_ClrBPEx(BPHandle = 0x00000005)  returns 0x00 (0000ms, 0690ms total)
T0AC4 002:229 JLINK_ReadMemU32(0xE000ED30, 0x0001 Items, ...) -- CPU_ReadMem(4 bytes @ 0xE000ED30) - Data: 03 00 00 00  returns 0x01 (0001ms, 0691ms total)
T0AC4 002:230 JLINK_ReadMemU32(0xE0001028, 0x0001 Items, ...) -- CPU_ReadMem(4 bytes @ 0xE0001028) - Data: 00 00 00 00  returns 0x01 (0000ms, 0691ms total)
T0AC4 002:230 JLINK_ReadMemU32(0xE0001038, 0x0001 Items, ...) -- CPU_ReadMem(4 bytes @ 0xE0001038) - Data: 00 02 00 00  returns 0x01 (0001ms, 0692ms total)
T0AC4 002:231 JLINK_ReadMemU32(0xE0001048, 0x0001 Items, ...) -- CPU_ReadMem(4 bytes @ 0xE0001048) - Data: 00 00 00 00  returns 0x01 (0000ms, 0692ms total)
T0AC4 002:231 JLINK_ReadMemU32(0xE0001058, 0x0001 Items, ...) -- CPU_ReadMem(4 bytes @ 0xE0001058) - Data: 00 00 00 00  returns 0x01 (0001ms, 0693ms total)
T0AC4 002:232 JLINK_ReadReg(R0)  returns 0x20000108 (0000ms, 0693ms total)
T0AC4 002:232 JLINK_ReadReg(R1)  returns 0x20000308 (0000ms, 0693ms total)
T0AC4 002:232 JLINK_ReadReg(R2)  returns 0x20000308 (0000ms, 0693ms total)
T0AC4 002:232 JLINK_ReadReg(R3)  returns 0x20000308 (0000ms, 0693ms total)
T0AC4 002:232 JLINK_ReadReg(R4)  returns 0x00000000 (0000ms, 0693ms total)
T0AC4 002:232 JLINK_ReadReg(R5)  returns 0x200000A4 (0000ms, 0693ms total)
T0AC4 002:232 JLINK_ReadReg(R6)  returns 0x00000000 (0000ms, 0693ms total)
T0AC4 002:232 JLINK_ReadReg(R7)  returns 0x00000000 (0000ms, 0693ms total)
T0AC4 002:232 JLINK_ReadReg(R8)  returns 0x00000000 (0000ms, 0693ms total)
T0AC4 002:232 JLINK_ReadReg(R9)  returns 0x00000000 (0000ms, 0693ms total)
T0AC4 002:232 JLINK_ReadReg(R10)  returns 0x08000648 (0000ms, 0693ms total)
T0AC4 002:232 JLINK_ReadReg(R11)  returns 0x00000000 (0000ms, 0693ms total)
T0AC4 002:232 JLINK_ReadReg(R12)  returns 0x200000E4 (0000ms, 0693ms total)
T0AC4 002:232 JLINK_ReadReg(R13 (SP))  returns 0x20000708 (0000ms, 0693ms total)
T0AC4 002:232 JLINK_ReadReg(R14)  returns 0x08000217 (0000ms, 0693ms total)
T0AC4 002:232 JLINK_ReadReg(R15 (PC))  returns 0x080005C0 (0000ms, 0693ms total)
T0AC4 002:232 JLINK_ReadReg(XPSR)  returns 0x21000000 (0000ms, 0693ms total)
T0AC4 002:232 JLINK_ReadReg(MSP)  returns 0x20000708 (0000ms, 0693ms total)
T0AC4 002:232 JLINK_ReadReg(PSP)  returns 0x00000000 (0000ms, 0693ms total)
T0AC4 002:232 JLINK_ReadReg(CFBP)  returns 0x04000000 (0000ms, 0693ms total)
T0AC4 002:232 JLINK_ReadReg(FPSCR)  returns 0x03000000 (0004ms, 0697ms total)
T0AC4 002:236 JLINK_ReadReg(FPS0)  returns 0x00000000 (0000ms, 0697ms total)
T0AC4 002:236 JLINK_ReadReg(FPS1)  returns 0x00000000 (0000ms, 0697ms total)
T0AC4 002:236 JLINK_ReadReg(FPS2)  returns 0x00000000 (0001ms, 0698ms total)
T0AC4 002:237 JLINK_ReadReg(FPS3)  returns 0x00000000 (0000ms, 0698ms total)
T0AC4 002:237 JLINK_ReadReg(FPS4)  returns 0x00000000 (0000ms, 0698ms total)
T0AC4 002:237 JLINK_ReadReg(FPS5)  returns 0x00000000 (0000ms, 0698ms total)
T0AC4 002:237 JLINK_ReadReg(FPS6)  returns 0x00000000 (0000ms, 0698ms total)
T0AC4 002:237 JLINK_ReadReg(FPS7)  returns 0x00000000 (0000ms, 0698ms total)
T0AC4 002:237 JLINK_ReadReg(FPS8)  returns 0x00000000 (0000ms, 0698ms total)
T0AC4 002:237 JLINK_ReadReg(FPS9)  returns 0x00000000 (0000ms, 0698ms total)
T0AC4 002:237 JLINK_ReadReg(FPS10)  returns 0x00000000 (0000ms, 0698ms total)
T0AC4 002:237 JLINK_ReadReg(FPS11)  returns 0x00000000 (0000ms, 0698ms total)
T0AC4 002:237 JLINK_ReadReg(FPS12)  returns 0x00000000 (0000ms, 0698ms total)
T0AC4 002:237 JLINK_ReadReg(FPS13)  returns 0x00000000 (0000ms, 0698ms total)
T0AC4 002:237 JLINK_ReadReg(FPS14)  returns 0x00000000 (0000ms, 0698ms total)
T0AC4 002:237 JLINK_ReadReg(FPS15)  returns 0x00000000 (0000ms, 0698ms total)
T0AC4 002:237 JLINK_ReadReg(FPS16)  returns 0x00000000 (0000ms, 0698ms total)
T0AC4 002:237 JLINK_ReadReg(FPS17)  returns 0x00000000 (0000ms, 0698ms total)
T0AC4 002:237 JLINK_ReadReg(FPS18)  returns 0x00000000 (0000ms, 0698ms total)
T0AC4 002:237 JLINK_ReadReg(FPS19)  returns 0x00000000 (0000ms, 0698ms total)
T0AC4 002:237 JLINK_ReadReg(FPS20)  returns 0x00000000 (0000ms, 0698ms total)
T0AC4 002:237 JLINK_ReadReg(FPS21)  returns 0x00000000 (0000ms, 0698ms total)
T0AC4 002:237 JLINK_ReadReg(FPS22)  returns 0x00000000 (0000ms, 0698ms total)
T0AC4 002:237 JLINK_ReadReg(FPS23)  returns 0x00000000 (0000ms, 0698ms total)
T0AC4 002:237 JLINK_ReadReg(FPS24)  returns 0x00000000 (0000ms, 0698ms total)
T0AC4 002:237 JLINK_ReadReg(FPS25)  returns 0x00000000 (0000ms, 0698ms total)
T0AC4 002:237 JLINK_ReadReg(FPS26)  returns 0x00000000 (0000ms, 0698ms total)
T0AC4 002:237 JLINK_ReadReg(FPS27)  returns 0x00000000 (0000ms, 0698ms total)
T0AC4 002:237 JLINK_ReadReg(FPS28)  returns 0x00000000 (0000ms, 0698ms total)
T0AC4 002:237 JLINK_ReadReg(FPS29)  returns 0x00000000 (0000ms, 0698ms total)
T0AC4 002:237 JLINK_ReadReg(FPS30)  returns 0x00000000 (0000ms, 0698ms total)
T0AC4 002:237 JLINK_ReadReg(FPS31)  returns 0x00000000 (0000ms, 0698ms total)
T0FDC 002:237 JLINK_ReadMem (0x200006F4, 0x0012 Bytes, ...) -- CPU_ReadMem(18 bytes @ 0x200006F4) - Data: 08 03 00 20 08 03 00 20 08 03 00 20 00 00 00 00 ...  returns 0x00 (0001ms, 0699ms total)
T0FDC 002:238 JLINK_ReadMem (0x00000000, 0x0004 Bytes, ...) -- CPU_ReadMem(4 bytes @ 0x00000000) - Data: 08 07 00 20  returns 0x00 (0001ms, 0700ms total)
T0FDC 002:242 JLINK_ReadMemU32(0xE0001004, 0x0001 Items, ...) -- CPU_ReadMem(4 bytes @ 0xE0001004) - Data: 77 04 00 00  returns 0x01 (0001ms, 0701ms total)
T0FDC 002:243 JLINK_ReadMem (0x40004800, 0x0018 Bytes, ...) -- CPU_ReadMem(24 bytes @ 0x40004800) - Data: 00 00 00 00 00 00 00 00 00 00 00 00 00 00 00 00 ...  returns 0x00 (0000ms, 0701ms total)
T0FDC 002:243 JLINK_ReadMem (0x40004818, 0x0004 Bytes, ...) -- CPU_ReadMem(4 bytes @ 0x40004818) - Data: 00 00 00 00  returns 0x00 (0001ms, 0702ms total)
T0FDC 002:244 JLINK_ReadMem (0x40021800, 0x0014 Bytes, ...) -- CPU_ReadMem(20 bytes @ 0x40021800) - Data: 00 00 00 00 00 00 00 00 00 00 00 00 00 00 00 00 ...  returns 0x00 (0001ms, 0703ms total)
T0FDC 002:245 JLINK_ReadMem (0x40021814, 0x0004 Bytes, ...) -- CPU_ReadMem(4 bytes @ 0x40021814) - Data: 00 00 00 00  returns 0x00 (0000ms, 0703ms total)
T0FDC 002:245 JLINK_ReadMem (0x4002181C, 0x0008 Bytes, ...) -- CPU_ReadMem(8 bytes @ 0x4002181C) - Data: 00 00 00 00 00 00 00 00  returns 0x00 (0001ms, 0704ms total)
T0FDC 002:246 JLINK_ReadMem (0x40021824, 0x0004 Bytes, ...) -- CPU_ReadMem(4 bytes @ 0x40021824) - Data: 00 00 00 00  returns 0x00 (0001ms, 0705ms total)
T0FDC 002:247 JLINK_ReadMem (0x40020800, 0x0014 Bytes, ...) -- CPU_ReadMem(20 bytes @ 0x40020800) - Data: 00 00 00 00 00 00 00 00 00 00 00 00 00 00 00 00 ...  returns 0x00 (0000ms, 0705ms total)
T0FDC 002:248 JLINK_ReadMem (0x40020814, 0x0004 Bytes, ...) -- CPU_ReadMem(4 bytes @ 0x40020814) - Data: 00 00 00 00  returns 0x00 (0000ms, 0705ms total)
T0FDC 002:248 JLINK_ReadMem (0x4002081C, 0x0008 Bytes, ...) -- CPU_ReadMem(8 bytes @ 0x4002081C) - Data: 00 00 00 00 00 00 00 00  returns 0x00 (0001ms, 0706ms total)
T0FDC 002:249 JLINK_ReadMem (0x40020824, 0x0004 Bytes, ...) -- CPU_ReadMem(4 bytes @ 0x40020824) - Data: 00 00 00 00  returns 0x00 (0000ms, 0706ms total)
T0FDC 002:249 JLINK_ReadMem (0x40011400, 0x0018 Bytes, ...) -- CPU_ReadMem(24 bytes @ 0x40011400) - Data: 00 00 00 00 00 00 00 00 00 00 00 00 00 00 00 00 ...  returns 0x00 (0001ms, 0707ms total)
T0FDC 002:250 JLINK_ReadMem (0x40011418, 0x0004 Bytes, ...) -- CPU_ReadMem(4 bytes @ 0x40011418) - Data: 00 00 00 00  returns 0x00 (0001ms, 0708ms total)
T0FDC 002:251 JLINK_ReadMem (0x40023800, 0x0008 Bytes, ...) -- CPU_ReadMem(8 bytes @ 0x40023800) - Data: 83 7D 00 00 10 30 00 24  returns 0x00 (0000ms, 0708ms total)
T0FDC 002:251 JLINK_ReadMem (0x40023808, 0x0004 Bytes, ...) -- CPU_ReadMem(4 bytes @ 0x40023808) - Data: 00 00 00 00  returns 0x00 (0001ms, 0709ms total)
T0FDC 002:252 JLINK_ReadMem (0x40023810, 0x0008 Bytes, ...) -- CPU_ReadMem(8 bytes @ 0x40023810) - Data: 00 00 00 00 00 00 00 00  returns 0x00 (0001ms, 0710ms total)
T0FDC 002:253 JLINK_ReadMem (0x40023818, 0x0004 Bytes, ...) -- CPU_ReadMem(4 bytes @ 0x40023818) - Data: 00 00 00 00  returns 0x00 (0000ms, 0710ms total)
T0FDC 002:253 JLINK_ReadMem (0x40023820, 0x0004 Bytes, ...) -- CPU_ReadMem(4 bytes @ 0x40023820) - Data: 00 00 00 00  returns 0x00 (0001ms, 0711ms total)
T0FDC 002:254 JLINK_ReadMem (0x40023824, 0x0004 Bytes, ...) -- CPU_ReadMem(4 bytes @ 0x40023824) - Data: 00 00 00 00  returns 0x00 (0000ms, 0711ms total)
T0FDC 002:254 JLINK_ReadMem (0x40023830, 0x0008 Bytes, ...) -- CPU_ReadMem(8 bytes @ 0x40023830) - Data: 00 00 10 00 00 00 00 00  returns 0x00 (0001ms, 0712ms total)
T0FDC 002:255 JLINK_ReadMem (0x40023838, 0x0004 Bytes, ...) -- CPU_ReadMem(4 bytes @ 0x40023838) - Data: 00 00 00 00  returns 0x00 (0000ms, 0712ms total)
T0FDC 002:255 JLINK_ReadMem (0x40023840, 0x0004 Bytes, ...) -- CPU_ReadMem(4 bytes @ 0x40023840) - Data: 00 00 00 00  returns 0x00 (0001ms, 0713ms total)
T0FDC 002:256 JLINK_ReadMem (0x40023844, 0x0004 Bytes, ...) -- CPU_ReadMem(4 bytes @ 0x40023844) - Data: 00 00 00 00  returns 0x00 (0001ms, 0714ms total)
T0FDC 002:257 JLINK_ReadMem (0x40023850, 0x0008 Bytes, ...) -- CPU_ReadMem(8 bytes @ 0x40023850) - Data: FF 91 67 7E F1 00 00 00  returns 0x00 (0000ms, 0714ms total)
T0FDC 002:257 JLINK_ReadMem (0x40023858, 0x0004 Bytes, ...) -- CPU_ReadMem(4 bytes @ 0x40023858) - Data: 01 00 00 00  returns 0x00 (0001ms, 0715ms total)
T0FDC 002:258 JLINK_ReadMem (0x40023860, 0x0004 Bytes, ...) -- CPU_ReadMem(4 bytes @ 0x40023860) - Data: FF C9 FE 36  returns 0x00 (0000ms, 0715ms total)
T0FDC 002:258 JLINK_ReadMem (0x40023864, 0x0004 Bytes, ...) -- CPU_ReadMem(4 bytes @ 0x40023864) - Data: 33 5F 07 00  returns 0x00 (0001ms, 0716ms total)
T0FDC 002:259 JLINK_ReadMem (0x40023870, 0x0004 Bytes, ...) -- CPU_ReadMem(4 bytes @ 0x40023870) - Data: 00 00 00 00  returns 0x00 (0000ms, 0716ms total)
T0FDC 002:259 JLINK_ReadMem (0x40023874, 0x0004 Bytes, ...) -- CPU_ReadMem(4 bytes @ 0x40023874) - Data: 00 00 00 1E  returns 0x00 (0001ms, 0717ms total)
T0FDC 002:260 JLINK_ReadMem (0x40023880, 0x0004 Bytes, ...) -- CPU_ReadMem(4 bytes @ 0x40023880) - Data: 00 00 00 00  returns 0x00 (0001ms, 0718ms total)
T0FDC 002:261 JLINK_ReadMem (0x40023884, 0x0004 Bytes, ...) -- CPU_ReadMem(4 bytes @ 0x40023884) - Data: 00 30 00 20  returns 0x00 (0000ms, 0718ms total)
T0FDC 002:262 JLINK_ReadMem (0x40007000, 0x0004 Bytes, ...) -- CPU_ReadMem(4 bytes @ 0x40007000) - Data: 00 C0 00 00  returns 0x00 (0000ms, 0718ms total)
T0FDC 002:262 JLINK_ReadMem (0x40007004, 0x0004 Bytes, ...) -- CPU_ReadMem(4 bytes @ 0x40007004) - Data: 00 00 00 00  returns 0x00 (0001ms, 0719ms total)
T0FDC 002:264 JLINK_ReadMem (0x080005C0, 0x003C Bytes, ...) -- CPU_ReadMem(64 bytes @ 0x080005C0) -- Updating DA cache (64 bytes @ 0x080005C0) -- Read from DA cache (60 bytes @ 0x080005C0) - Data: 86 B0 14 22 07 A1 01 A8 FF F7 4E FE 00 BF 4F F4 ...  returns 0x00 (0001ms, 0720ms total)
T0AC4 292:729 JLINK_Step() -- Read from DA cache (2 bytes @ 0x080005C0) -- Simulated  returns 0x00 (0001ms, 0721ms total)
T0AC4 292:730 JLINK_ReadReg(R15 (PC))  returns 0x080005C2 (0000ms, 0721ms total)
T0AC4 292:730 JLINK_ReadReg(XPSR)  returns 0x21000000 (0000ms, 0721ms total)
T0AC4 292:730 JLINK_ReadReg(R0)  returns 0x20000108 (0000ms, 0721ms total)
T0AC4 292:730 JLINK_ReadReg(R1)  returns 0x20000308 (0000ms, 0721ms total)
T0AC4 292:730 JLINK_ReadReg(R2)  returns 0x20000308 (0000ms, 0721ms total)
T0AC4 292:730 JLINK_ReadReg(R3)  returns 0x20000308 (0000ms, 0721ms total)
T0AC4 292:730 JLINK_ReadReg(R4)  returns 0x00000000 (0000ms, 0721ms total)
T0AC4 292:730 JLINK_ReadReg(R5)  returns 0x200000A4 (0000ms, 0721ms total)
T0AC4 292:730 JLINK_ReadReg(R6)  returns 0x00000000 (0000ms, 0721ms total)
T0AC4 292:730 JLINK_ReadReg(R7)  returns 0x00000000 (0000ms, 0721ms total)
T0AC4 292:730 JLINK_ReadReg(R8)  returns 0x00000000 (0000ms, 0721ms total)
T0AC4 292:730 JLINK_ReadReg(R9)  returns 0x00000000 (0000ms, 0721ms total)
T0AC4 292:730 JLINK_ReadReg(R10)  returns 0x08000648 (0000ms, 0721ms total)
T0AC4 292:730 JLINK_ReadReg(R11)  returns 0x00000000 (0000ms, 0721ms total)
T0AC4 292:730 JLINK_ReadReg(R12)  returns 0x200000E4 (0000ms, 0721ms total)
T0AC4 292:730 JLINK_ReadReg(R13 (SP))  returns 0x200006F0 (0000ms, 0721ms total)
T0AC4 292:730 JLINK_ReadReg(R14)  returns 0x08000217 (0000ms, 0721ms total)
T0AC4 292:730 JLINK_ReadReg(R15 (PC))  returns 0x080005C2 (0000ms, 0721ms total)
T0AC4 292:730 JLINK_ReadReg(XPSR)  returns 0x21000000 (0000ms, 0721ms total)
T0AC4 292:730 JLINK_ReadReg(MSP)  returns 0x200006F0 (0000ms, 0721ms total)
T0AC4 292:730 JLINK_ReadReg(PSP)  returns 0x00000000 (0000ms, 0721ms total)
T0AC4 292:730 JLINK_ReadReg(CFBP)  returns 0x04000000 (0000ms, 0721ms total)
T0AC4 292:730 JLINK_ReadReg(FPSCR)  returns 0x03000000 (0000ms, 0721ms total)
T0AC4 292:730 JLINK_ReadReg(FPS0)  returns 0x00000000 (0000ms, 0721ms total)
T0AC4 292:730 JLINK_ReadReg(FPS1)  returns 0x00000000 (0000ms, 0721ms total)
T0AC4 292:730 JLINK_ReadReg(FPS2)  returns 0x00000000 (0000ms, 0721ms total)
T0AC4 292:730 JLINK_ReadReg(FPS3)  returns 0x00000000 (0000ms, 0721ms total)
T0AC4 292:730 JLINK_ReadReg(FPS4)  returns 0x00000000 (0000ms, 0721ms total)
T0AC4 292:730 JLINK_ReadReg(FPS5)  returns 0x00000000 (0000ms, 0721ms total)
T0AC4 292:730 JLINK_ReadReg(FPS6)  returns 0x00000000 (0000ms, 0721ms total)
T0AC4 292:730 JLINK_ReadReg(FPS7)  returns 0x00000000 (0000ms, 0721ms total)
T0AC4 292:730 JLINK_ReadReg(FPS8)  returns 0x00000000 (0000ms, 0721ms total)
T0AC4 292:730 JLINK_ReadReg(FPS9)  returns 0x00000000 (0000ms, 0721ms total)
T0AC4 292:730 JLINK_ReadReg(FPS10)  returns 0x00000000 (0000ms, 0721ms total)
T0AC4 292:730 JLINK_ReadReg(FPS11)  returns 0x00000000 (0000ms, 0721ms total)
T0AC4 292:730 JLINK_ReadReg(FPS12)  returns 0x00000000 (0000ms, 0721ms total)
T0AC4 292:730 JLINK_ReadReg(FPS13)  returns 0x00000000 (0000ms, 0721ms total)
T0AC4 292:730 JLINK_ReadReg(FPS14)  returns 0x00000000 (0000ms, 0721ms total)
T0AC4 292:730 JLINK_ReadReg(FPS15)  returns 0x00000000 (0000ms, 0721ms total)
T0AC4 292:730 JLINK_ReadReg(FPS16)  returns 0x00000000 (0000ms, 0721ms total)
T0AC4 292:730 JLINK_ReadReg(FPS17)  returns 0x00000000 (0000ms, 0721ms total)
T0AC4 292:730 JLINK_ReadReg(FPS18)  returns 0x00000000 (0000ms, 0721ms total)
T0AC4 292:730 JLINK_ReadReg(FPS19)  returns 0x00000000 (0000ms, 0721ms total)
T0AC4 292:730 JLINK_ReadReg(FPS20)  returns 0x00000000 (0000ms, 0721ms total)
T0AC4 292:730 JLINK_ReadReg(FPS21)  returns 0x00000000 (0000ms, 0721ms total)
T0AC4 292:730 JLINK_ReadReg(FPS22)  returns 0x00000000 (0000ms, 0721ms total)
T0AC4 292:730 JLINK_ReadReg(FPS23)  returns 0x00000000 (0000ms, 0721ms total)
T0AC4 292:730 JLINK_ReadReg(FPS24)  returns 0x00000000 (0000ms, 0721ms total)
T0AC4 292:730 JLINK_ReadReg(FPS25)  returns 0x00000000 (0000ms, 0721ms total)
T0AC4 292:730 JLINK_ReadReg(FPS26)  returns 0x00000000 (0000ms, 0721ms total)
T0AC4 292:730 JLINK_ReadReg(FPS27)  returns 0x00000000 (0000ms, 0721ms total)
T0AC4 292:730 JLINK_ReadReg(FPS28)  returns 0x00000000 (0000ms, 0721ms total)
T0AC4 292:730 JLINK_ReadReg(FPS29)  returns 0x00000000 (0000ms, 0721ms total)
T0AC4 292:730 JLINK_ReadReg(FPS30)  returns 0x00000000 (0000ms, 0721ms total)
T0AC4 292:730 JLINK_ReadReg(FPS31)  returns 0x00000000 (0000ms, 0721ms total)
T0FDC 292:731 JLINK_ReadMem (0x200006F4, 0x0012 Bytes, ...) -- CPU_ReadMem(18 bytes @ 0x200006F4) - Data: 08 03 00 20 08 03 00 20 08 03 00 20 00 00 00 00 ...  returns 0x00 (0001ms, 0722ms total)
T0FDC 292:732 JLINK_ReadMem (0x00000000, 0x0004 Bytes, ...) -- CPU_ReadMem(4 bytes @ 0x00000000) - Data: 08 07 00 20  returns 0x00 (0001ms, 0723ms total)
T0FDC 292:733 JLINK_ReadMemU32(0xE0001004, 0x0001 Items, ...) - Data: 77 04 00 00  returns 0x01 (0000ms, 0723ms total)
T0FDC 292:733 JLINK_ReadMem (0x40004800, 0x0018 Bytes, ...) -- CPU_ReadMem(24 bytes @ 0x40004800) - Data: 00 00 00 00 00 00 00 00 00 00 00 00 00 00 00 00 ...  returns 0x00 (0001ms, 0724ms total)
T0FDC 292:734 JLINK_ReadMem (0x40004818, 0x0004 Bytes, ...) -- CPU_ReadMem(4 bytes @ 0x40004818) - Data: 00 00 00 00  returns 0x00 (0000ms, 0724ms total)
T0FDC 292:734 JLINK_ReadMem (0x40021800, 0x0014 Bytes, ...) -- CPU_ReadMem(20 bytes @ 0x40021800) - Data: 00 00 00 00 00 00 00 00 00 00 00 00 00 00 00 00 ...  returns 0x00 (0001ms, 0725ms total)
T0FDC 292:735 JLINK_ReadMem (0x40021814, 0x0004 Bytes, ...) -- CPU_ReadMem(4 bytes @ 0x40021814) - Data: 00 00 00 00  returns 0x00 (0001ms, 0726ms total)
T0FDC 292:736 JLINK_ReadMem (0x4002181C, 0x0008 Bytes, ...) -- CPU_ReadMem(8 bytes @ 0x4002181C) - Data: 00 00 00 00 00 00 00 00  returns 0x00 (0000ms, 0726ms total)
T0FDC 292:736 JLINK_ReadMem (0x40021824, 0x0004 Bytes, ...) -- CPU_ReadMem(4 bytes @ 0x40021824) - Data: 00 00 00 00  returns 0x00 (0001ms, 0727ms total)
T0FDC 292:737 JLINK_ReadMem (0x40020800, 0x0014 Bytes, ...) -- CPU_ReadMem(20 bytes @ 0x40020800) - Data: 00 00 00 00 00 00 00 00 00 00 00 00 00 00 00 00 ...  returns 0x00 (0001ms, 0728ms total)
T0FDC 292:738 JLINK_ReadMem (0x40020814, 0x0004 Bytes, ...) -- CPU_ReadMem(4 bytes @ 0x40020814) - Data: 00 00 00 00  returns 0x00 (0001ms, 0729ms total)
T0FDC 292:739 JLINK_ReadMem (0x4002081C, 0x0008 Bytes, ...) -- CPU_ReadMem(8 bytes @ 0x4002081C) - Data: 00 00 00 00 00 00 00 00  returns 0x00 (0000ms, 0729ms total)
T0FDC 292:739 JLINK_ReadMem (0x40020824, 0x0004 Bytes, ...) -- CPU_ReadMem(4 bytes @ 0x40020824) - Data: 00 00 00 00  returns 0x00 (0001ms, 0730ms total)
T0FDC 292:740 JLINK_ReadMem (0x40011400, 0x0018 Bytes, ...) -- CPU_ReadMem(24 bytes @ 0x40011400) - Data: 00 00 00 00 00 00 00 00 00 00 00 00 00 00 00 00 ...  returns 0x00 (0001ms, 0731ms total)
T0FDC 292:741 JLINK_ReadMem (0x40011418, 0x0004 Bytes, ...) -- CPU_ReadMem(4 bytes @ 0x40011418) - Data: 00 00 00 00  returns 0x00 (0000ms, 0731ms total)
T0FDC 292:742 JLINK_ReadMem (0x40023800, 0x0008 Bytes, ...) -- CPU_ReadMem(8 bytes @ 0x40023800) - Data: 83 7D 00 00 10 30 00 24  returns 0x00 (0001ms, 0732ms total)
T0FDC 292:743 JLINK_ReadMem (0x40023808, 0x0004 Bytes, ...) -- CPU_ReadMem(4 bytes @ 0x40023808) - Data: 00 00 00 00  returns 0x00 (0001ms, 0733ms total)
T0FDC 292:744 JLINK_ReadMem (0x40023810, 0x0008 Bytes, ...) -- CPU_ReadMem(8 bytes @ 0x40023810) - Data: 00 00 00 00 00 00 00 00  returns 0x00 (0000ms, 0733ms total)
T0FDC 292:744 JLINK_ReadMem (0x40023818, 0x0004 Bytes, ...) -- CPU_ReadMem(4 bytes @ 0x40023818) - Data: 00 00 00 00  returns 0x00 (0001ms, 0734ms total)
T0FDC 292:745 JLINK_ReadMem (0x40023820, 0x0004 Bytes, ...) -- CPU_ReadMem(4 bytes @ 0x40023820) - Data: 00 00 00 00  returns 0x00 (0000ms, 0734ms total)
T0FDC 292:745 JLINK_ReadMem (0x40023824, 0x0004 Bytes, ...) -- CPU_ReadMem(4 bytes @ 0x40023824) - Data: 00 00 00 00  returns 0x00 (0001ms, 0735ms total)
T0FDC 292:746 JLINK_ReadMem (0x40023830, 0x0008 Bytes, ...) -- CPU_ReadMem(8 bytes @ 0x40023830) - Data: 00 00 10 00 00 00 00 00  returns 0x00 (0000ms, 0735ms total)
T0FDC 292:746 JLINK_ReadMem (0x40023838, 0x0004 Bytes, ...) -- CPU_ReadMem(4 bytes @ 0x40023838) - Data: 00 00 00 00  returns 0x00 (0001ms, 0736ms total)
T0FDC 292:747 JLINK_ReadMem (0x40023840, 0x0004 Bytes, ...) -- CPU_ReadMem(4 bytes @ 0x40023840) - Data: 00 00 00 00  returns 0x00 (0000ms, 0736ms total)
T0FDC 292:747 JLINK_ReadMem (0x40023844, 0x0004 Bytes, ...) -- CPU_ReadMem(4 bytes @ 0x40023844) - Data: 00 00 00 00  returns 0x00 (0001ms, 0737ms total)
T0FDC 292:748 JLINK_ReadMem (0x40023850, 0x0008 Bytes, ...) -- CPU_ReadMem(8 bytes @ 0x40023850) - Data: FF 91 67 7E F1 00 00 00  returns 0x00 (0001ms, 0738ms total)
T0FDC 292:749 JLINK_ReadMem (0x40023858, 0x0004 Bytes, ...) -- CPU_ReadMem(4 bytes @ 0x40023858) - Data: 01 00 00 00  returns 0x00 (0000ms, 0738ms total)
T0FDC 292:749 JLINK_ReadMem (0x40023860, 0x0004 Bytes, ...) -- CPU_ReadMem(4 bytes @ 0x40023860) - Data: FF C9 FE 36  returns 0x00 (0001ms, 0739ms total)
T0FDC 292:750 JLINK_ReadMem (0x40023864, 0x0004 Bytes, ...) -- CPU_ReadMem(4 bytes @ 0x40023864) - Data: 33 5F 07 00  returns 0x00 (0000ms, 0739ms total)
T0FDC 292:750 JLINK_ReadMem (0x40023870, 0x0004 Bytes, ...) -- CPU_ReadMem(4 bytes @ 0x40023870) - Data: 00 00 00 00  returns 0x00 (0001ms, 0740ms total)
T0FDC 292:751 JLINK_ReadMem (0x40023874, 0x0004 Bytes, ...) -- CPU_ReadMem(4 bytes @ 0x40023874) - Data: 00 00 00 1E  returns 0x00 (0000ms, 0740ms total)
T0FDC 292:751 JLINK_ReadMem (0x40023880, 0x0004 Bytes, ...) -- CPU_ReadMem(4 bytes @ 0x40023880) - Data: 00 00 00 00  returns 0x00 (0001ms, 0741ms total)
T0FDC 292:752 JLINK_ReadMem (0x40023884, 0x0004 Bytes, ...) -- CPU_ReadMem(4 bytes @ 0x40023884) - Data: 00 30 00 20  returns 0x00 (0001ms, 0742ms total)
T0FDC 292:753 JLINK_ReadMem (0x40007000, 0x0004 Bytes, ...) -- CPU_ReadMem(4 bytes @ 0x40007000) - Data: 00 C0 00 00  returns 0x00 (0001ms, 0743ms total)
T0FDC 292:754 JLINK_ReadMem (0x40007004, 0x0004 Bytes, ...) -- CPU_ReadMem(4 bytes @ 0x40007004) - Data: 00 00 00 00  returns 0x00 (0000ms, 0743ms total)
T0FDC 292:758 JLINK_ReadMem (0x080005C0, 0x003C Bytes, ...) -- Read from DA cache (60 bytes @ 0x080005C0) - Data: 86 B0 14 22 07 A1 01 A8 FF F7 4E FE 00 BF 4F F4 ...  returns 0x00 (0000ms, 0743ms total)
T0AC4 293:251 JLINK_Step() -- Read from DA cache (2 bytes @ 0x080005C2) -- Simulated  returns 0x00 (0001ms, 0744ms total)
T0AC4 293:252 JLINK_ReadReg(R15 (PC))  returns 0x080005C4 (0000ms, 0744ms total)
T0AC4 293:252 JLINK_ReadReg(XPSR)  returns 0x21000000 (0000ms, 0744ms total)
T0AC4 293:252 JLINK_Step() -- Read from DA cache (2 bytes @ 0x080005C4) -- Simulated  returns 0x00 (0000ms, 0744ms total)
T0AC4 293:252 JLINK_ReadReg(R15 (PC))  returns 0x080005C6 (0000ms, 0744ms total)
T0AC4 293:252 JLINK_ReadReg(XPSR)  returns 0x21000000 (0000ms, 0744ms total)
T0AC4 293:252 JLINK_Step() -- Read from DA cache (2 bytes @ 0x080005C6) -- Simulated  returns 0x00 (0000ms, 0744ms total)
T0AC4 293:252 JLINK_ReadReg(R15 (PC))  returns 0x080005C8 (0000ms, 0744ms total)
T0AC4 293:252 JLINK_ReadReg(XPSR)  returns 0x21000000 (0000ms, 0744ms total)
T0AC4 293:252 JLINK_SetBPEx(Addr = 0x080005CC, Type = 0xFFFFFFF2)  returns 0x00000006 (0000ms, 0744ms total)
T0AC4 293:252 JLINK_SetBPEx(Addr = 0x08000436, Type = 0xFFFFFFF2)  returns 0x00000007 (0000ms, 0744ms total)
T0AC4 293:252 JLINK_SetBPEx(Addr = 0x08000420, Type = 0xFFFFFFF2)  returns 0x00000008 (0000ms, 0744ms total)
T0AC4 293:252 JLINK_SetBPEx(Addr = 0x08000418, Type = 0xFFFFFFF2)  returns 0x00000009 (0000ms, 0744ms total)
T0AC4 293:252 JLINK_SetBPEx(Addr = 0x08000416, Type = 0xFFFFFFF2)  returns 0x0000000A (0000ms, 0744ms total)
T0AC4 293:252 JLINK_Go() -- CPU_WriteMem(4 bytes @ 0xE0002008) -- CPU_WriteMem(4 bytes @ 0xE0001004) (0003ms, 0747ms total)
T0AC4 293:356 JLINK_IsHalted()  returns TRUE (0003ms, 0750ms total)
T0AC4 293:359 JLINK_Halt()  returns 0x00 (0000ms, 0747ms total)
T0AC4 293:359 JLINK_IsHalted()  returns TRUE (0000ms, 0747ms total)
T0AC4 293:359 JLINK_IsHalted()  returns TRUE (0000ms, 0747ms total)
T0AC4 293:359 JLINK_IsHalted()  returns TRUE (0000ms, 0747ms total)
T0AC4 293:359 JLINK_ReadReg(R15 (PC))  returns 0x080005CC (0000ms, 0747ms total)
T0AC4 293:359 JLINK_ReadReg(XPSR)  returns 0x61000000 (0000ms, 0747ms total)
T0AC4 293:359 JLINK_ClrBPEx(BPHandle = 0x00000006)  returns 0x00 (0000ms, 0747ms total)
T0AC4 293:359 JLINK_ClrBPEx(BPHandle = 0x00000007)  returns 0x00 (0000ms, 0747ms total)
T0AC4 293:359 JLINK_ClrBPEx(BPHandle = 0x00000008)  returns 0x00 (0000ms, 0747ms total)
T0AC4 293:359 JLINK_ClrBPEx(BPHandle = 0x00000009)  returns 0x00 (0000ms, 0747ms total)
T0AC4 293:359 JLINK_ClrBPEx(BPHandle = 0x0000000A)  returns 0x00 (0000ms, 0747ms total)
T0AC4 293:359 JLINK_ReadMemU32(0xE000ED30, 0x0001 Items, ...) -- CPU_ReadMem(4 bytes @ 0xE000ED30) - Data: 03 00 00 00  returns 0x01 (0000ms, 0747ms total)
T0AC4 293:359 JLINK_ReadMemU32(0xE0001028, 0x0001 Items, ...) -- CPU_ReadMem(4 bytes @ 0xE0001028) - Data: 00 00 00 00  returns 0x01 (0001ms, 0748ms total)
T0AC4 293:360 JLINK_ReadMemU32(0xE0001038, 0x0001 Items, ...) -- CPU_ReadMem(4 bytes @ 0xE0001038) - Data: 00 02 00 00  returns 0x01 (0001ms, 0749ms total)
T0AC4 293:361 JLINK_ReadMemU32(0xE0001048, 0x0001 Items, ...) -- CPU_ReadMem(4 bytes @ 0xE0001048) - Data: 00 00 00 00  returns 0x01 (0000ms, 0749ms total)
T0AC4 293:361 JLINK_ReadMemU32(0xE0001058, 0x0001 Items, ...) -- CPU_ReadMem(4 bytes @ 0xE0001058) - Data: 00 00 00 00  returns 0x01 (0001ms, 0750ms total)
T0AC4 293:362 JLINK_ReadReg(R0)  returns 0x20000708 (0000ms, 0750ms total)
T0AC4 293:362 JLINK_ReadReg(R1)  returns 0x080005F8 (0000ms, 0750ms total)
T0AC4 293:362 JLINK_ReadReg(R2)  returns 0xFFFFFFF4 (0000ms, 0750ms total)
T0AC4 293:362 JLINK_ReadReg(R3)  returns 0x00000D21 (0000ms, 0750ms total)
T0AC4 293:362 JLINK_ReadReg(R4)  returns 0x00000000 (0000ms, 0750ms total)
T0AC4 293:362 JLINK_ReadReg(R5)  returns 0x200000A4 (0000ms, 0750ms total)
T0AC4 293:362 JLINK_ReadReg(R6)  returns 0x00000000 (0000ms, 0750ms total)
T0AC4 293:362 JLINK_ReadReg(R7)  returns 0x00000000 (0000ms, 0750ms total)
T0AC4 293:362 JLINK_ReadReg(R8)  returns 0x00000000 (0000ms, 0750ms total)
T0AC4 293:362 JLINK_ReadReg(R9)  returns 0x00000000 (0000ms, 0750ms total)
T0AC4 293:362 JLINK_ReadReg(R10)  returns 0x08000648 (0000ms, 0750ms total)
T0AC4 293:362 JLINK_ReadReg(R11)  returns 0x00000000 (0000ms, 0750ms total)
T0AC4 293:362 JLINK_ReadReg(R12)  returns 0x00000000 (0000ms, 0750ms total)
T0AC4 293:362 JLINK_ReadReg(R13 (SP))  returns 0x200006F0 (0000ms, 0750ms total)
T0AC4 293:362 JLINK_ReadReg(R14)  returns 0x080005CD (0000ms, 0750ms total)
T0AC4 293:362 JLINK_ReadReg(R15 (PC))  returns 0x080005CC (0000ms, 0750ms total)
T0AC4 293:362 JLINK_ReadReg(XPSR)  returns 0x61000000 (0000ms, 0750ms total)
T0AC4 293:362 JLINK_ReadReg(MSP)  returns 0x200006F0 (0000ms, 0750ms total)
T0AC4 293:362 JLINK_ReadReg(PSP)  returns 0x00000000 (0000ms, 0750ms total)
T0AC4 293:362 JLINK_ReadReg(CFBP)  returns 0x04000000 (0000ms, 0750ms total)
T0AC4 293:362 JLINK_ReadReg(FPSCR)  returns 0x03000000 (0004ms, 0754ms total)
T0AC4 293:366 JLINK_ReadReg(FPS0)  returns 0x00000000 (0000ms, 0754ms total)
T0AC4 293:366 JLINK_ReadReg(FPS1)  returns 0x00000000 (0000ms, 0754ms total)
T0AC4 293:366 JLINK_ReadReg(FPS2)  returns 0x00000000 (0000ms, 0754ms total)
T0AC4 293:366 JLINK_ReadReg(FPS3)  returns 0x00000000 (0000ms, 0754ms total)
T0AC4 293:366 JLINK_ReadReg(FPS4)  returns 0x00000000 (0000ms, 0754ms total)
T0AC4 293:366 JLINK_ReadReg(FPS5)  returns 0x00000000 (0000ms, 0754ms total)
T0AC4 293:366 JLINK_ReadReg(FPS6)  returns 0x00000000 (0000ms, 0754ms total)
T0AC4 293:366 JLINK_ReadReg(FPS7)  returns 0x00000000 (0000ms, 0754ms total)
T0AC4 293:366 JLINK_ReadReg(FPS8)  returns 0x00000000 (0000ms, 0754ms total)
T0AC4 293:366 JLINK_ReadReg(FPS9)  returns 0x00000000 (0000ms, 0754ms total)
T0AC4 293:366 JLINK_ReadReg(FPS10)  returns 0x00000000 (0000ms, 0754ms total)
T0AC4 293:366 JLINK_ReadReg(FPS11)  returns 0x00000000 (0000ms, 0754ms total)
T0AC4 293:366 JLINK_ReadReg(FPS12)  returns 0x00000000 (0000ms, 0754ms total)
T0AC4 293:366 JLINK_ReadReg(FPS13)  returns 0x00000000 (0000ms, 0754ms total)
T0AC4 293:366 JLINK_ReadReg(FPS14)  returns 0x00000000 (0000ms, 0754ms total)
T0AC4 293:366 JLINK_ReadReg(FPS15)  returns 0x00000000 (0000ms, 0754ms total)
T0AC4 293:366 JLINK_ReadReg(FPS16)  returns 0x00000000 (0000ms, 0754ms total)
T0AC4 293:366 JLINK_ReadReg(FPS17)  returns 0x00000000 (0000ms, 0754ms total)
T0AC4 293:366 JLINK_ReadReg(FPS18)  returns 0x00000000 (0000ms, 0754ms total)
T0AC4 293:366 JLINK_ReadReg(FPS19)  returns 0x00000000 (0000ms, 0754ms total)
T0AC4 293:366 JLINK_ReadReg(FPS20)  returns 0x00000000 (0000ms, 0754ms total)
T0AC4 293:366 JLINK_ReadReg(FPS21)  returns 0x00000000 (0000ms, 0754ms total)
T0AC4 293:366 JLINK_ReadReg(FPS22)  returns 0x00000000 (0000ms, 0754ms total)
T0AC4 293:366 JLINK_ReadReg(FPS23)  returns 0x00000000 (0000ms, 0754ms total)
T0AC4 293:366 JLINK_ReadReg(FPS24)  returns 0x00000000 (0000ms, 0754ms total)
T0AC4 293:366 JLINK_ReadReg(FPS25)  returns 0x00000000 (0000ms, 0754ms total)
T0AC4 293:366 JLINK_ReadReg(FPS26)  returns 0x00000000 (0000ms, 0754ms total)
T0AC4 293:366 JLINK_ReadReg(FPS27)  returns 0x00000000 (0000ms, 0754ms total)
T0AC4 293:366 JLINK_ReadReg(FPS28)  returns 0x00000000 (0000ms, 0754ms total)
T0AC4 293:366 JLINK_ReadReg(FPS29)  returns 0x00000000 (0000ms, 0754ms total)
T0AC4 293:366 JLINK_ReadReg(FPS30)  returns 0x00000000 (0000ms, 0754ms total)
T0AC4 293:366 JLINK_ReadReg(FPS31)  returns 0x00000000 (0000ms, 0754ms total)
T0FDC 293:366 JLINK_ReadMem (0x200006F4, 0x0012 Bytes, ...) -- CPU_ReadMem(18 bytes @ 0x200006F4) - Data: 58 42 45 42 20 46 55 43 4B 20 59 45 41 48 21 21 ...  returns 0x00 (0001ms, 0755ms total)
T0FDC 293:368 JLINK_ReadMem (0x00000000, 0x0004 Bytes, ...) -- CPU_ReadMem(4 bytes @ 0x00000000) - Data: 08 07 00 20  returns 0x00 (0000ms, 0755ms total)
T0FDC 293:368 JLINK_ReadMemU32(0xE0001004, 0x0001 Items, ...) -- CPU_ReadMem(4 bytes @ 0xE0001004) - Data: 9F 04 00 00  returns 0x01 (0001ms, 0756ms total)
T0FDC 293:369 JLINK_ReadMem (0x40004800, 0x0018 Bytes, ...) -- CPU_ReadMem(24 bytes @ 0x40004800) - Data: 00 00 00 00 00 00 00 00 00 00 00 00 00 00 00 00 ...  returns 0x00 (0001ms, 0757ms total)
T0FDC 293:370 JLINK_ReadMem (0x40004818, 0x0004 Bytes, ...) -- CPU_ReadMem(4 bytes @ 0x40004818) - Data: 00 00 00 00  returns 0x00 (0000ms, 0757ms total)
T0FDC 293:370 JLINK_ReadMem (0x40021800, 0x0014 Bytes, ...) -- CPU_ReadMem(20 bytes @ 0x40021800) - Data: 00 00 00 00 00 00 00 00 00 00 00 00 00 00 00 00 ...  returns 0x00 (0001ms, 0758ms total)
T0FDC 293:371 JLINK_ReadMem (0x40021814, 0x0004 Bytes, ...) -- CPU_ReadMem(4 bytes @ 0x40021814) - Data: 00 00 00 00  returns 0x00 (0001ms, 0759ms total)
T0FDC 293:372 JLINK_ReadMem (0x4002181C, 0x0008 Bytes, ...) -- CPU_ReadMem(8 bytes @ 0x4002181C) - Data: 00 00 00 00 00 00 00 00  returns 0x00 (0000ms, 0759ms total)
T0FDC 293:372 JLINK_ReadMem (0x40021824, 0x0004 Bytes, ...) -- CPU_ReadMem(4 bytes @ 0x40021824) - Data: 00 00 00 00  returns 0x00 (0001ms, 0760ms total)
T0FDC 293:373 JLINK_ReadMem (0x40020800, 0x0014 Bytes, ...) -- CPU_ReadMem(20 bytes @ 0x40020800) - Data: 00 00 00 00 00 00 00 00 00 00 00 00 00 00 00 00 ...  returns 0x00 (0001ms, 0761ms total)
T0FDC 293:374 JLINK_ReadMem (0x40020814, 0x0004 Bytes, ...) -- CPU_ReadMem(4 bytes @ 0x40020814) - Data: 00 00 00 00  returns 0x00 (0000ms, 0761ms total)
T0FDC 293:374 JLINK_ReadMem (0x4002081C, 0x0008 Bytes, ...) -- CPU_ReadMem(8 bytes @ 0x4002081C) - Data: 00 00 00 00 00 00 00 00  returns 0x00 (0001ms, 0762ms total)
T0FDC 293:375 JLINK_ReadMem (0x40020824, 0x0004 Bytes, ...) -- CPU_ReadMem(4 bytes @ 0x40020824) - Data: 00 00 00 00  returns 0x00 (0001ms, 0763ms total)
T0FDC 293:376 JLINK_ReadMem (0x40011400, 0x0018 Bytes, ...) -- CPU_ReadMem(24 bytes @ 0x40011400) - Data: 00 00 00 00 00 00 00 00 00 00 00 00 00 00 00 00 ...  returns 0x00 (0000ms, 0763ms total)
T0FDC 293:376 JLINK_ReadMem (0x40011418, 0x0004 Bytes, ...) -- CPU_ReadMem(4 bytes @ 0x40011418) - Data: 00 00 00 00  returns 0x00 (0001ms, 0764ms total)
T0FDC 293:377 JLINK_ReadMem (0x40023800, 0x0008 Bytes, ...) -- CPU_ReadMem(8 bytes @ 0x40023800) - Data: 83 7D 00 00 10 30 00 24  returns 0x00 (0001ms, 0765ms total)
T0FDC 293:378 JLINK_ReadMem (0x40023808, 0x0004 Bytes, ...) -- CPU_ReadMem(4 bytes @ 0x40023808) - Data: 00 00 00 00  returns 0x00 (0000ms, 0765ms total)
T0FDC 293:378 JLINK_ReadMem (0x40023810, 0x0008 Bytes, ...) -- CPU_ReadMem(8 bytes @ 0x40023810) - Data: 00 00 00 00 00 00 00 00  returns 0x00 (0001ms, 0766ms total)
T0FDC 293:379 JLINK_ReadMem (0x40023818, 0x0004 Bytes, ...) -- CPU_ReadMem(4 bytes @ 0x40023818) - Data: 00 00 00 00  returns 0x00 (0001ms, 0767ms total)
T0FDC 293:380 JLINK_ReadMem (0x40023820, 0x0004 Bytes, ...) -- CPU_ReadMem(4 bytes @ 0x40023820) - Data: 00 00 00 00  returns 0x00 (0000ms, 0767ms total)
T0FDC 293:380 JLINK_ReadMem (0x40023824, 0x0004 Bytes, ...) -- CPU_ReadMem(4 bytes @ 0x40023824) - Data: 00 00 00 00  returns 0x00 (0001ms, 0768ms total)
T0FDC 293:381 JLINK_ReadMem (0x40023830, 0x0008 Bytes, ...) -- CPU_ReadMem(8 bytes @ 0x40023830) - Data: 00 00 10 00 00 00 00 00  returns 0x00 (0000ms, 0768ms total)
T0FDC 293:381 JLINK_ReadMem (0x40023838, 0x0004 Bytes, ...) -- CPU_ReadMem(4 bytes @ 0x40023838) - Data: 00 00 00 00  returns 0x00 (0001ms, 0769ms total)
T0FDC 293:382 JLINK_ReadMem (0x40023840, 0x0004 Bytes, ...) -- CPU_ReadMem(4 bytes @ 0x40023840) - Data: 00 00 00 00  returns 0x00 (0000ms, 0769ms total)
T0FDC 293:382 JLINK_ReadMem (0x40023844, 0x0004 Bytes, ...) -- CPU_ReadMem(4 bytes @ 0x40023844) - Data: 00 00 00 00  returns 0x00 (0001ms, 0770ms total)
T0FDC 293:383 JLINK_ReadMem (0x40023850, 0x0008 Bytes, ...) -- CPU_ReadMem(8 bytes @ 0x40023850) - Data: FF 91 67 7E F1 00 00 00  returns 0x00 (0001ms, 0771ms total)
T0FDC 293:384 JLINK_ReadMem (0x40023858, 0x0004 Bytes, ...) -- CPU_ReadMem(4 bytes @ 0x40023858) - Data: 01 00 00 00  returns 0x00 (0000ms, 0771ms total)
T0FDC 293:384 JLINK_ReadMem (0x40023860, 0x0004 Bytes, ...) -- CPU_ReadMem(4 bytes @ 0x40023860) - Data: FF C9 FE 36  returns 0x00 (0001ms, 0772ms total)
T0FDC 293:385 JLINK_ReadMem (0x40023864, 0x0004 Bytes, ...) -- CPU_ReadMem(4 bytes @ 0x40023864) - Data: 33 5F 07 00  returns 0x00 (0000ms, 0772ms total)
T0FDC 293:385 JLINK_ReadMem (0x40023870, 0x0004 Bytes, ...) -- CPU_ReadMem(4 bytes @ 0x40023870) - Data: 00 00 00 00  returns 0x00 (0001ms, 0773ms total)
T0FDC 293:386 JLINK_ReadMem (0x40023874, 0x0004 Bytes, ...) -- CPU_ReadMem(4 bytes @ 0x40023874) - Data: 00 00 00 1E  returns 0x00 (0000ms, 0773ms total)
T0FDC 293:386 JLINK_ReadMem (0x40023880, 0x0004 Bytes, ...) -- CPU_ReadMem(4 bytes @ 0x40023880) - Data: 00 00 00 00  returns 0x00 (0001ms, 0774ms total)
T0FDC 293:387 JLINK_ReadMem (0x40023884, 0x0004 Bytes, ...) -- CPU_ReadMem(4 bytes @ 0x40023884) - Data: 00 30 00 20  returns 0x00 (0001ms, 0775ms total)
